
T397C 000:323 SEGGER J-Link V5.12i Log File (0000ms, 0281ms total)
T397C 000:323 DLL Compiled: Jul  5 2016 19:01:50 (0000ms, 0281ms total)
T397C 000:323 Logging started @ 2016-09-09 15:30 (0000ms, 0281ms total)
T397C 000:323 JLINK_SetWarnOutHandler(...) (0000ms, 0281ms total)
T397C 000:323 JLINK_OpenEx(...)
Firmware: J-Link V9 compiled Apr 22 2016 11:47:06
Hardware: V9.30
S/N: 59306083
Feature(s): GDB  returns O.K. (0283ms, 0564ms total)
T397C 000:606 JLINK_SetErrorOutHandler(...) (0000ms, 0564ms total)
T397C 000:606 JLINK_ExecCommand("ProjectFile = "C:\vts-ver17\build\keil\vts_ver3_rev1\JLinkSettings.ini"", ...)Device "CORTEX-M0+" selected.  returns 0x00 (0014ms, 0578ms total)
T397C 000:628 JLINK_ExecCommand("Device = MKL26Z128xxx4", ...)Device "MKL26Z128XXX4" selected.  returns 0x00 (0002ms, 0581ms total)
T397C 000:631 JLINK_ExecCommand("DisableConnectionTimeout", ...)  returns 0x01 (0000ms, 0581ms total)
T397C 000:631 JLINK_GetHardwareVersion()  returns 0x16B48 (0000ms, 0581ms total)
T397C 000:631 JLINK_GetDLLVersion()  returns 51209 (0000ms, 0581ms total)
T397C 000:631 JLINK_GetFirmwareString(...) (0000ms, 0581ms total)
T397C 000:633 JLINK_GetDLLVersion()  returns 51209 (0000ms, 0581ms total)
T397C 000:633 JLINK_GetCompileDateTime() (0000ms, 0581ms total)
T397C 000:633 JLINK_GetFirmwareString(...) (0000ms, 0581ms total)
T397C 000:634 JLINK_GetHardwareVersion()  returns 0x16B48 (0000ms, 0581ms total)
T397C 000:636 JLINK_TIF_Select(JLINKARM_TIF_SWD)  returns 0x00 (0001ms, 0582ms total)
T397C 000:637 JLINK_SetSpeed(5000) (0000ms, 0582ms total)
T397C 000:637 JLINK_GetId() >0x108 TIF>Found SWD-DP with ID 0x0BC11477 >0x0D TIF> >0x28 TIF> >0x0D TIF> >0x28 TIF> >0x0D TIF> >0x28 TIF> >0x0D TIF> >0x28 TIF> >0x0D TIF> >0x21 TIF> >0x0D TIF> >0x28 TIF> >0x0D TIF> >0x21 TIF> >0x0D TIF> >0x21 TIF> >0x0D TIF> >0x21 TIF> >0x0D TIF> >0x21 TIF> >0x0D TIF> >0x21 TIF> >0x0D TIF> >0x21 TIF> >0x0D TIF> >0x21 TIF> >0x0D TIF> >0x21 TIF> >0x0D TIF> >0x21 TIF> >0x0D TIF> >0x21 TIF> >0x0D TIF> >0x21 TIF> >0x0D TIF> >0x21 TIF> >0x0D TIF> >0x21 TIF> >0x0D TIF>
 >0x21 TIF> >0x0D TIF> >0x21 TIF> >0x0D TIF> >0x21 TIF> >0x0D TIF> >0x21 TIF> >0x0D TIF> >0x21 TIF> >0x0D TIF> >0x21 TIF> >0x0D TIF> >0x21 TIF> >0x0D TIF> >0x21 TIF> >0x0D TIF> >0x21 TIF> >0x0D TIF> >0x21 TIF> >0x0D TIF> >0x21 TIF> >0x0D TIF> >0x21 TIF> >0x0D TIF> >0x21 TIF> >0x0D TIF> >0x21 TIF> >0x0D TIF> >0x21 TIF> >0x0D TIF> >0x21 TIF> >0x0D TIF> >0x21 TIF> >0x0D TIF> >0x21 TIF> >0x0D TIF> >0x21 TIF> >0x0D TIF> >0x21 TIF> >0x0D TIF> >0x21 TIF> >0x0D TIF> >0x21 TIF> >0x0D TIF> >0x21 TIF> >0x0D TIF>
 >0x21 TIF> >0x0D TIF> >0x21 TIF> >0x0D TIF> >0x21 TIF> >0x0D TIF> >0x21 TIF> >0x0D TIF> >0x21 TIF> >0x0D TIF> >0x21 TIF> >0x0D TIF> >0x21 TIF> >0x0D TIF> >0x21 TIF> >0x0D TIF> >0x21 TIF> >0x0D TIF> >0x21 TIF> >0x0D TIF> >0x21 TIF> >0x0D TIF> >0x21 TIF> >0x0D TIF> >0x21 TIF> >0x0D TIF> >0x21 TIF> >0x0D TIF> >0x21 TIF> >0x0D TIF> >0x21 TIF> >0x0D TIF> >0x21 TIF> >0x0D TIF> >0x21 TIF> >0x0D TIF> >0x21 TIF> >0x0D TIF> >0x21 TIF> >0x0D TIF> >0x21 TIF> >0x0D TIF> >0x21 TIF> >0x0D TIF> >0x21 TIF> >0x0D TIF>
 >0x21 TIF> >0x0D TIF> >0x21 TIF> >0x0D TIF> >0x21 TIF> >0x0D TIF> >0x21 TIF> >0x0D TIF> >0x21 TIF> >0x0D TIF> >0x21 TIF> >0x0D TIF> >0x21 TIF> >0x0D TIF> >0x21 TIF> >0x0D TIF> >0x21 TIF> >0x0D TIF> >0x21 TIF> >0x0D TIF> >0x21 TIF> >0x0D TIF> >0x21 TIF> >0x0D TIF> >0x21 TIF> >0x0D TIF> >0x21 TIF> >0x0D TIF> >0x21 TIF> >0x0D TIF> >0x21 TIF> >0x0D TIF> >0x21 TIF> >0x0D TIF> >0x21 TIF> >0x0D TIF> >0x21 TIF> >0x0D TIF> >0x21 TIF> >0x0D TIF> >0x21 TIF> >0x0D TIF> >0x21 TIF> >0x0D TIF> >0x21 TIF> >0x0D TIF>
 >0x21 TIF> >0x0D TIF> >0x21 TIF> >0x0D TIF> >0x21 TIF> >0x0D TIF> >0x21 TIF> >0x0D TIF> >0x21 TIF> >0x0D TIF> >0x21 TIF> >0x0D TIF> >0x21 TIF> >0x0D TIF> >0x21 TIF> >0x0D TIF> >0x21 TIF> >0x0D TIF> >0x21 TIF> >0x0D TIF> >0x21 TIF> >0x0D TIF> >0x21 TIF> >0x0D TIF> >0x21 TIF> >0x0D TIF> >0x21 TIF> >0x0D TIF> >0x21 TIF> >0x0D TIF> >0x21 TIF> >0x0D TIF> >0x21 TIF> >0x0D TIF> >0x21 TIF> >0x0D TIF> >0x21 TIF> >0x0D TIF> >0x21 TIF> >0x0D TIF> >0x21 TIF> >0x0D TIF> >0x21 TIF> >0x0D TIF> >0x21 TIF> >0x0D TIF>
 >0x21 TIF> >0x0D TIF> >0x21 TIF> >0x0D TIF> >0x21 TIF> >0x0D TIF> >0x21 TIF> >0x0D TIF> >0x21 TIF> >0x0D TIF> >0x21 TIF> >0x0D TIF> >0x21 TIF> >0x0D TIF> >0x21 TIF> >0x0D TIF> >0x21 TIF> >0x0D TIF> >0x21 TIF> >0x0D TIF> >0x21 TIF> >0x0D TIF> >0x21 TIF> >0x0D TIF> >0x21 TIF> >0x0D TIF> >0x21 TIF> >0x0D TIF> >0x21 TIF> >0x0D TIF> >0x21 TIF> >0x0D TIF> >0x21 TIF> >0x0D TIF> >0x21 TIF> >0x0D TIF> >0x21 TIF> >0x0D TIF> >0x21 TIF> >0x0D TIF> >0x21 TIF> >0x0D TIF> >0x21 TIF> >0x0D TIF> >0x21 TIF> >0x0D TIF>
 >0x21 TIF> >0x0D TIF> >0x21 TIF> >0x0D TIF> >0x21 TIF> >0x0D TIF> >0x21 TIF> >0x0D TIF> >0x21 TIF> >0x0D TIF> >0x21 TIF> >0x0D TIF> >0x21 TIF> >0x0D TIF> >0x21 TIF> >0x0D TIF> >0x21 TIF> >0x0D TIF> >0x21 TIF> >0x0D TIF> >0x21 TIF> >0x0D TIF> >0x21 TIF> >0x0D TIF> >0x21 TIF> >0x0D TIF> >0x21 TIF> >0x0D TIF> >0x21 TIF> >0x0D TIF> >0x21 TIF> >0x0D TIF> >0x21 TIF> >0x0D TIF> >0x21 TIF> >0x0D TIF> >0x21 TIF> >0x0D TIF> >0x21 TIF> >0x0D TIF> >0x21 TIF> >0x0D TIF> >0x21 TIF> >0x0D TIF> >0x21 TIF> >0x0D TIF>
 >0x21 TIF> >0x0D TIF> >0x21 TIF> >0x0D TIF> >0x21 TIF> >0x0D TIF> >0x21 TIF> >0x0D TIF> >0x21 TIF> >0x0D TIF> >0x21 TIF> >0x0D TIF> >0x21 TIF> >0x0D TIF> >0x21 TIF> >0x0D TIF> >0x21 TIF> >0x0D TIF> >0x28 TIF> >0x0D TIF> >0x28 TIF> >0x0D TIF> >0x28 TIF> >0x0D TIF> >0x21 TIF> >0x0D TIF> >0x21 TIF> >0x108 TIF>Found SWD-DP with ID 0x0BC11477 >0x0D TIF> >0x28 TIF> >0x0D TIF> >0x28 TIF> >0x0D TIF> >0x28 TIF> >0x0D TIF> >0x28 TIF> >0x0D TIF> >0x21 TIF> >0x0D TIF> >0x28 TIF> >0x0D TIF> >0x28 TIF> >0x0D TIF>
 >0x21 TIF> >0x0D TIF> >0x21 TIF> >0x0D TIF> >0x21 TIF> >0x0D TIF> >0x28 TIF> >0x0D TIF> >0x28 TIF> >0x0D TIF> >0x28 TIF> >0x0D TIF> >0x21 TIF> >0x0D TIF> >0x21 TIF> >0x0D TIF> >0x28 TIF> >0x0D TIF> >0x21 TIF> >0x0D TIF> >0x21 TIF>Found Cortex-M0 r0p0, Little endian. -- CPU_ReadMem(4 bytes @ 0xE000EDF0) -- CPU_WriteMem(4 bytes @ 0xE000EDF0) -- CPU_ReadMem(4 bytes @ 0xE0002000)FPUnit: 2 code (BP) slots and 0 literal slots -- CPU_ReadMem(4 bytes @ 0xE000EDFC) -- CPU_WriteMem(4 bytes @ 0xE000EDFC)
 -- CPU_ReadMem(4 bytes @ 0xE0001000) -- CPU_WriteMem(4 bytes @ 0xE0001000)CoreSight components:ROMTbl 0 @ F0002000 -- CPU_ReadMem(16 bytes @ 0xF0002000) -- CPU_ReadMem(16 bytes @ 0xF0000FF0) -- CPU_ReadMem(16 bytes @ 0xF0000FE0)ROMTbl 0 [0]: FFFFE000, CID: B105900D, PID: 000BB932 MTB-M0+ -- CPU_ReadMem(16 bytes @ 0xF0001FF0) -- CPU_ReadMem(16 bytes @ 0xF0001FE0)ROMTbl 0 [1]: FFFFF000, CID: B105900D, PID: 0008E000 MTBDWT -- CPU_ReadMem(16 bytes @ 0xE00FFFF0) -- CPU_ReadMem(16 bytes @ 0xE00FFFE0)
ROMTbl 0 [2]: F00FD000, CID: B105100D, PID: 000BB4C0 ROM TableROMTbl 1 @ E00FF000 -- CPU_ReadMem(16 bytes @ 0xE00FF000) -- CPU_ReadMem(16 bytes @ 0xE000EFF0) -- CPU_ReadMem(16 bytes @ 0xE000EFE0)ROMTbl 1 [0]: FFF0F000, CID: B105E00D, PID: 000BB008 SCS -- CPU_ReadMem(16 bytes @ 0xE0001FF0) -- CPU_ReadMem(16 bytes @ 0xE0001FE0)ROMTbl 1 [1]: FFF02000, CID: B105E00D, PID: 000BB00A DWT -- CPU_ReadMem(16 bytes @ 0xE0002FF0) -- CPU_ReadMem(16 bytes @ 0xE0002FE0)
ROMTbl 1 [2]: FFF03000, CID: B105E00D, PID: 000BB00B FPB >0x0D TIF> >0x21 TIF>  returns 0x0BC11477 (0078ms, 0660ms total)
T397C 000:715 JLINK_GetDLLVersion()  returns 51209 (0000ms, 0660ms total)
T397C 000:715 JLINK_CORE_GetFound()  returns 0x60000FF (0000ms, 0660ms total)
T397C 000:715 JLINK_GetDebugInfo(0x100) -- Value=0xF0002000  returns 0x00 (0000ms, 0660ms total)
T397C 000:715 JLINK_GetDebugInfo(0x100) -- Value=0xF0002000  returns 0x00 (0000ms, 0660ms total)
T397C 000:715 JLINK_GetDebugInfo(0x101) -- Value=0x00000000  returns 0x00 (0000ms, 0660ms total)
T397C 000:715 JLINK_ReadMem (0xE0041FF0, 0x0010 Bytes, ...) -- CPU is running -- CPU_ReadMem(16 bytes @ 0xE0041FF0) - Data: 00 00 00 00 00 00 00 00 00 00 00 00 00 00 00 00  returns 0x00 (0001ms, 0661ms total)
T397C 000:716 JLINK_GetDebugInfo(0x102) -- Value=0xF0000000  returns 0x00 (0000ms, 0661ms total)
T397C 000:716 JLINK_CORE_GetFound()  returns 0x60000FF (0000ms, 0661ms total)
T397C 000:716 JLINK_GetDebugInfo(0x103) -- Value=0x00000000  returns 0x00 (0000ms, 0661ms total)
T397C 000:716 JLINK_ReadMem (0xE0040FF0, 0x0010 Bytes, ...) -- CPU is running -- CPU_ReadMem(16 bytes @ 0xE0040FF0) - Data: 00 00 00 00 00 00 00 00 00 00 00 00 00 00 00 00  returns 0x00 (0000ms, 0661ms total)
T397C 000:716 JLINK_GetDebugInfo(0x104) -- Value=0xE0000000  returns 0x00 (0000ms, 0661ms total)
T397C 000:716 JLINK_GetDebugInfo(0x105) -- Value=0xE0001000  returns 0x00 (0000ms, 0661ms total)
T397C 000:716 JLINK_GetDebugInfo(0x106) -- Value=0xE0002000  returns 0x00 (0000ms, 0661ms total)
T397C 000:716 JLINK_GetDebugInfo(0x107) -- Value=0xE000E000  returns 0x00 (0000ms, 0661ms total)
T397C 000:716 JLINK_GetDebugInfo(0x10C) -- Value=0xE000EDF0  returns 0x00 (0000ms, 0661ms total)
T397C 000:716 JLINK_ReadMemU32(0xE000ED00, 0x0001 Items, ...) -- CPU is running -- CPU_ReadMem(4 bytes @ 0xE000ED00) - Data: 00 C6 0C 41  returns 0x01 (0001ms, 0662ms total)
T397C 000:717 JLINK_SetResetType(JLINKARM_RESET_TYPE_ADI)  returns JLINKARM_RESET_TYPE_NORMAL (0000ms, 0662ms total)
T397C 000:717 JLINK_Reset() -- CPU is running -- CPU_WriteMem(4 bytes @ 0xE000EDF0) -- CPU is running -- CPU_WriteMem(4 bytes @ 0xE000EDFC) -- CPU_WriteMem(4 bytes @ 0xE000EDF0) -- CPU_WriteMem(4 bytes @ 0xE000EDFC) -- CPU_ReadMem(4 bytes @ 0xE000EDF0) -- CPU_WriteMem(4 bytes @ 0xE000EDFC) -- CPU_WriteMem(4 bytes @ 0xE000ED0C) -- CPU_ReadMem(4 bytes @ 0xE000EDF0) -- CPU_ReadMem(4 bytes @ 0xE000EDF0) -- CPU_WriteMem(4 bytes @ 0xE000EDF0) -- CPU_WriteMem(4 bytes @ 0xE000EDFC) -- CPU is running
 -- CPU_ReadMem(4 bytes @ 0xE000EDF0) -- CPU_WriteMem(4 bytes @ 0xE0002000) -- CPU_ReadMem(4 bytes @ 0xE000EDFC) -- CPU_ReadMem(4 bytes @ 0xE0001000) -- CPU_WriteMem(4 bytes @ 0xE0001000) (0148ms, 0810ms total)
T397C 000:865 JLINK_Halt()  returns 0x00 (0000ms, 0810ms total)
T397C 000:865 JLINK_IsHalted()  returns TRUE (0000ms, 0810ms total)
T397C 000:865 JLINK_ReadMemU32(0xE000EDF0, 0x0001 Items, ...) -- CPU_ReadMem(4 bytes @ 0xE000EDF0) - Data: 03 00 03 00  returns 0x01 (0001ms, 0811ms total)
T397C 000:866 JLINK_WriteU32(0xE000EDF0, 0xA05F0003) -- CPU_WriteMem(4 bytes @ 0xE000EDF0)  returns 0x00 (0000ms, 0811ms total)
T397C 000:866 JLINK_WriteU32(0xE000EDFC, 0x01000000) -- CPU_WriteMem(4 bytes @ 0xE000EDFC)  returns 0x00 (0001ms, 0812ms total)
T397C 000:869 JLINK_GetHWStatus(...)  returns 0x00 (0001ms, 0813ms total)
T397C 000:872 JLINK_GetNumBPUnits(Type = 0xFFFFFF00)  returns 0x02 (0000ms, 0813ms total)
T397C 000:872 JLINK_GetNumBPUnits(Type = 0xF0)  returns 0x2000 (0000ms, 0813ms total)
T397C 000:872 JLINK_GetNumWPUnits()  returns 0x02 (0000ms, 0813ms total)
T397C 000:873 JLINK_GetSpeed()  returns 0xFA0 (0000ms, 0813ms total)
T397C 000:874 JLINK_ReadMemU32(0xE000E004, 0x0001 Items, ...) -- CPU_ReadMem(4 bytes @ 0xE000E004) - Data: 00 00 00 00  returns 0x01 (0001ms, 0814ms total)
T397C 000:875 JLINK_Halt()  returns 0x00 (0000ms, 0814ms total)
T397C 000:875 JLINK_IsHalted()  returns TRUE (0000ms, 0814ms total)
T397C 000:879 JLINK_WriteMem(0x1FFFF000, 0x0620 Bytes, ...) - Data: 00 BE 0A E0 0D 78 2D 06 68 40 08 24 40 00 00 D3 ... -- CPU_WriteMem(1568 bytes @ 0x1FFFF000)  returns 0x620 (0007ms, 0821ms total)
T397C 000:886 JLINK_WriteReg(R0, 0x00000000)  returns 0x00 (0000ms, 0821ms total)
T397C 000:886 JLINK_WriteReg(R1, 0x00B71B00)  returns 0x00 (0000ms, 0821ms total)
T397C 000:886 JLINK_WriteReg(R2, 0x00000001)  returns 0x00 (0000ms, 0821ms total)
T397C 000:886 JLINK_WriteReg(R3, 0x00000000)  returns 0x00 (0000ms, 0821ms total)
T397C 000:886 JLINK_WriteReg(R4, 0x00000000)  returns 0x00 (0000ms, 0821ms total)
T397C 000:886 JLINK_WriteReg(R5, 0x00000000)  returns 0x00 (0000ms, 0821ms total)
T397C 000:886 JLINK_WriteReg(R6, 0x00000000)  returns 0x00 (0000ms, 0821ms total)
T397C 000:886 JLINK_WriteReg(R7, 0x00000000)  returns 0x00 (0000ms, 0821ms total)
T397C 000:886 JLINK_WriteReg(R8, 0x00000000)  returns 0x00 (0000ms, 0821ms total)
T397C 000:886 JLINK_WriteReg(R9, 0x1FFFF618)  returns 0x00 (0000ms, 0821ms total)
T397C 000:886 JLINK_WriteReg(R10, 0x00000000)  returns 0x00 (0000ms, 0821ms total)
T397C 000:886 JLINK_WriteReg(R11, 0x00000000)  returns 0x00 (0000ms, 0821ms total)
T397C 000:886 JLINK_WriteReg(R12, 0x00000000)  returns 0x00 (0000ms, 0821ms total)
T397C 000:886 JLINK_WriteReg(R13 (SP), 0x1FFFF800)  returns 0x00 (0000ms, 0821ms total)
T397C 000:886 JLINK_WriteReg(R14, 0x1FFFF001)  returns 0x00 (0000ms, 0821ms total)
T397C 000:886 JLINK_WriteReg(R15 (PC), 0x1FFFF020)  returns 0x00 (0000ms, 0821ms total)
T397C 000:886 JLINK_WriteReg(XPSR, 0x01000000)  returns 0x00 (0000ms, 0821ms total)
T397C 000:886 JLINK_WriteReg(MSP, 0x1FFFF800)  returns 0x00 (0000ms, 0821ms total)
T397C 000:886 JLINK_WriteReg(PSP, 0x1FFFF800)  returns 0x00 (0000ms, 0821ms total)
T397C 000:886 JLINK_WriteReg(CFBP, 0x00000000)  returns 0x00 (0000ms, 0821ms total)
T397C 000:886 JLINK_SetBPEx(Addr = 0x1FFFF000, Type = 0xFFFFFFF2)  returns 0x00000001 (0000ms, 0821ms total)
T397C 000:886 JLINK_Go() -- CPU_WriteMem(4 bytes @ 0xE0002000) -- CPU_ReadMem(4 bytes @ 0xE0001000) -- CPU_WriteMem(4 bytes @ 0xE0001000) -- CPU_WriteMem(4 bytes @ 0xE0002008) -- CPU_WriteMem(4 bytes @ 0xE000200C) -- CPU_WriteMem(4 bytes @ 0xE0001004) (0003ms, 0824ms total)
T397C 000:889 JLINK_IsHalted()  returns TRUE (0003ms, 0827ms total)
T397C 000:892 JLINK_ReadReg(R15 (PC))  returns 0x1FFFF000 (0000ms, 0824ms total)
T397C 000:892 JLINK_ClrBPEx(BPHandle = 0x00000001)  returns 0x00 (0000ms, 0824ms total)
T397C 000:892 JLINK_ReadReg(R0)  returns 0x00000000 (0000ms, 0824ms total)
T397C 000:892 JLINK_WriteReg(R0, 0x00000000)  returns 0x00 (0000ms, 0824ms total)
T397C 000:892 JLINK_WriteReg(R1, 0x00B71B00)  returns 0x00 (0000ms, 0824ms total)
T397C 000:892 JLINK_WriteReg(R2, 0x00000001)  returns 0x00 (0000ms, 0824ms total)
T397C 000:892 JLINK_WriteReg(R3, 0x00000000)  returns 0x00 (0000ms, 0824ms total)
T397C 000:892 JLINK_WriteReg(R4, 0x00000000)  returns 0x00 (0000ms, 0824ms total)
T397C 000:892 JLINK_WriteReg(R5, 0x00000000)  returns 0x00 (0000ms, 0824ms total)
T397C 000:892 JLINK_WriteReg(R6, 0x00000000)  returns 0x00 (0000ms, 0824ms total)
T397C 000:892 JLINK_WriteReg(R7, 0x00000000)  returns 0x00 (0000ms, 0824ms total)
T397C 000:892 JLINK_WriteReg(R8, 0x00000000)  returns 0x00 (0000ms, 0824ms total)
T397C 000:892 JLINK_WriteReg(R9, 0x1FFFF618)  returns 0x00 (0000ms, 0824ms total)
T397C 000:892 JLINK_WriteReg(R10, 0x00000000)  returns 0x00 (0000ms, 0824ms total)
T397C 000:892 JLINK_WriteReg(R11, 0x00000000)  returns 0x00 (0000ms, 0824ms total)
T397C 000:892 JLINK_WriteReg(R12, 0x00000000)  returns 0x00 (0000ms, 0824ms total)
T397C 000:892 JLINK_WriteReg(R13 (SP), 0x1FFFF800)  returns 0x00 (0000ms, 0824ms total)
T397C 000:892 JLINK_WriteReg(R14, 0x1FFFF001)  returns 0x00 (0000ms, 0824ms total)
T397C 000:892 JLINK_WriteReg(R15 (PC), 0x1FFFF088)  returns 0x00 (0000ms, 0824ms total)
T397C 000:892 JLINK_WriteReg(XPSR, 0x01000000)  returns 0x00 (0000ms, 0824ms total)
T397C 000:892 JLINK_WriteReg(MSP, 0x1FFFF800)  returns 0x00 (0000ms, 0824ms total)
T397C 000:892 JLINK_WriteReg(PSP, 0x1FFFF800)  returns 0x00 (0001ms, 0825ms total)
T397C 000:893 JLINK_WriteReg(CFBP, 0x00000000)  returns 0x00 (0000ms, 0825ms total)
T397C 000:893 JLINK_SetBPEx(Addr = 0x1FFFF000, Type = 0xFFFFFFF2)  returns 0x00000002 (0000ms, 0825ms total)
T397C 000:893 JLINK_Go() -- CPU_WriteMem(4 bytes @ 0xE0002000) -- CPU_ReadMem(4 bytes @ 0xE0001000) -- CPU_WriteMem(4 bytes @ 0xE0001000) (0002ms, 0827ms total)
T397C 000:895 JLINK_IsHalted()  returns FALSE (0001ms, 0828ms total)
T397C 001:006 JLINK_IsHalted()  returns TRUE (0002ms, 0829ms total)
T397C 001:008 JLINK_ReadReg(R15 (PC))  returns 0x1FFFF000 (0000ms, 0827ms total)
T397C 001:008 JLINK_ClrBPEx(BPHandle = 0x00000002)  returns 0x00 (0000ms, 0827ms total)
T397C 001:008 JLINK_ReadReg(R0)  returns 0x00000000 (0000ms, 0827ms total)
T397C 001:060 JLINK_WriteReg(R0, 0x00000001)  returns 0x00 (0000ms, 0827ms total)
T397C 001:060 JLINK_WriteReg(R1, 0x00B71B00)  returns 0x00 (0000ms, 0827ms total)
T397C 001:060 JLINK_WriteReg(R2, 0x00000001)  returns 0x00 (0000ms, 0827ms total)
T397C 001:060 JLINK_WriteReg(R3, 0x00000000)  returns 0x00 (0000ms, 0827ms total)
T397C 001:060 JLINK_WriteReg(R4, 0x00000000)  returns 0x00 (0000ms, 0827ms total)
T397C 001:060 JLINK_WriteReg(R5, 0x00000000)  returns 0x00 (0001ms, 0828ms total)
T397C 001:061 JLINK_WriteReg(R6, 0x00000000)  returns 0x00 (0000ms, 0828ms total)
T397C 001:061 JLINK_WriteReg(R7, 0x00000000)  returns 0x00 (0000ms, 0828ms total)
T397C 001:061 JLINK_WriteReg(R8, 0x00000000)  returns 0x00 (0000ms, 0828ms total)
T397C 001:061 JLINK_WriteReg(R9, 0x1FFFF618)  returns 0x00 (0000ms, 0828ms total)
T397C 001:061 JLINK_WriteReg(R10, 0x00000000)  returns 0x00 (0000ms, 0828ms total)
T397C 001:061 JLINK_WriteReg(R11, 0x00000000)  returns 0x00 (0000ms, 0828ms total)
T397C 001:061 JLINK_WriteReg(R12, 0x00000000)  returns 0x00 (0000ms, 0828ms total)
T397C 001:061 JLINK_WriteReg(R13 (SP), 0x1FFFF800)  returns 0x00 (0000ms, 0828ms total)
T397C 001:061 JLINK_WriteReg(R14, 0x1FFFF001)  returns 0x00 (0000ms, 0828ms total)
T397C 001:061 JLINK_WriteReg(R15 (PC), 0x1FFFF064)  returns 0x00 (0000ms, 0828ms total)
T397C 001:061 JLINK_WriteReg(XPSR, 0x01000000)  returns 0x00 (0000ms, 0828ms total)
T397C 001:061 JLINK_WriteReg(MSP, 0x1FFFF800)  returns 0x00 (0000ms, 0828ms total)
T397C 001:061 JLINK_WriteReg(PSP, 0x1FFFF800)  returns 0x00 (0000ms, 0828ms total)
T397C 001:061 JLINK_WriteReg(CFBP, 0x00000000)  returns 0x00 (0000ms, 0828ms total)
T397C 001:061 JLINK_SetBPEx(Addr = 0x1FFFF000, Type = 0xFFFFFFF2)  returns 0x00000003 (0000ms, 0828ms total)
T397C 001:061 JLINK_Go() -- CPU_WriteMem(4 bytes @ 0xE0002000) -- CPU_ReadMem(4 bytes @ 0xE0001000) -- CPU_WriteMem(4 bytes @ 0xE0001000) (0003ms, 0831ms total)
T397C 001:064 JLINK_IsHalted()  returns TRUE (0002ms, 0833ms total)
T397C 001:066 JLINK_ReadReg(R15 (PC))  returns 0x1FFFF000 (0000ms, 0831ms total)
T397C 001:066 JLINK_ClrBPEx(BPHandle = 0x00000003)  returns 0x00 (0000ms, 0831ms total)
T397C 001:066 JLINK_ReadReg(R0)  returns 0x00000000 (0000ms, 0831ms total)
T397C 001:076 JLINK_WriteMem(0x1FFFF000, 0x0620 Bytes, ...) - Data: 00 BE 0A E0 0D 78 2D 06 68 40 08 24 40 00 00 D3 ... -- CPU_WriteMem(1568 bytes @ 0x1FFFF000)  returns 0x620 (0006ms, 0837ms total)
T397C 001:082 JLINK_WriteReg(R0, 0x00000000)  returns 0x00 (0001ms, 0838ms total)
T397C 001:083 JLINK_WriteReg(R1, 0x00B71B00)  returns 0x00 (0000ms, 0838ms total)
T397C 001:083 JLINK_WriteReg(R2, 0x00000002)  returns 0x00 (0000ms, 0838ms total)
T397C 001:083 JLINK_WriteReg(R3, 0x00000000)  returns 0x00 (0000ms, 0838ms total)
T397C 001:083 JLINK_WriteReg(R4, 0x00000000)  returns 0x00 (0000ms, 0838ms total)
T397C 001:083 JLINK_WriteReg(R5, 0x00000000)  returns 0x00 (0000ms, 0838ms total)
T397C 001:083 JLINK_WriteReg(R6, 0x00000000)  returns 0x00 (0000ms, 0838ms total)
T397C 001:083 JLINK_WriteReg(R7, 0x00000000)  returns 0x00 (0000ms, 0838ms total)
T397C 001:083 JLINK_WriteReg(R8, 0x00000000)  returns 0x00 (0000ms, 0838ms total)
T397C 001:083 JLINK_WriteReg(R9, 0x1FFFF618)  returns 0x00 (0000ms, 0838ms total)
T397C 001:083 JLINK_WriteReg(R10, 0x00000000)  returns 0x00 (0000ms, 0838ms total)
T397C 001:083 JLINK_WriteReg(R11, 0x00000000)  returns 0x00 (0000ms, 0838ms total)
T397C 001:083 JLINK_WriteReg(R12, 0x00000000)  returns 0x00 (0000ms, 0838ms total)
T397C 001:083 JLINK_WriteReg(R13 (SP), 0x1FFFF800)  returns 0x00 (0000ms, 0838ms total)
T397C 001:083 JLINK_WriteReg(R14, 0x1FFFF001)  returns 0x00 (0000ms, 0838ms total)
T397C 001:083 JLINK_WriteReg(R15 (PC), 0x1FFFF020)  returns 0x00 (0000ms, 0838ms total)
T397C 001:083 JLINK_WriteReg(XPSR, 0x01000000)  returns 0x00 (0000ms, 0838ms total)
T397C 001:083 JLINK_WriteReg(MSP, 0x1FFFF800)  returns 0x00 (0000ms, 0838ms total)
T397C 001:083 JLINK_WriteReg(PSP, 0x1FFFF800)  returns 0x00 (0000ms, 0838ms total)
T397C 001:083 JLINK_WriteReg(CFBP, 0x00000000)  returns 0x00 (0000ms, 0838ms total)
T397C 001:083 JLINK_SetBPEx(Addr = 0x1FFFF000, Type = 0xFFFFFFF2)  returns 0x00000004 (0000ms, 0838ms total)
T397C 001:083 JLINK_Go() -- CPU_WriteMem(4 bytes @ 0xE0002000) -- CPU_ReadMem(4 bytes @ 0xE0001000) -- CPU_WriteMem(4 bytes @ 0xE0001000) (0003ms, 0841ms total)
T397C 001:086 JLINK_IsHalted()  returns TRUE (0002ms, 0843ms total)
T397C 001:088 JLINK_ReadReg(R15 (PC))  returns 0x1FFFF000 (0000ms, 0841ms total)
T397C 001:088 JLINK_ClrBPEx(BPHandle = 0x00000004)  returns 0x00 (0000ms, 0841ms total)
T397C 001:088 JLINK_ReadReg(R0)  returns 0x00000000 (0000ms, 0841ms total)
T397C 001:088 JLINK_WriteMem(0x1FFFF648, 0x0100 Bytes, ...) - Data: F8 2F 00 20 9D 03 00 00 C9 01 00 00 A9 72 00 00 ... -- CPU_WriteMem(256 bytes @ 0x1FFFF648)  returns 0x100 (0002ms, 0843ms total)
T397C 001:090 JLINK_WriteReg(R0, 0x00000000)  returns 0x00 (0000ms, 0843ms total)
T397C 001:090 JLINK_WriteReg(R1, 0x00000100)  returns 0x00 (0000ms, 0843ms total)
T397C 001:090 JLINK_WriteReg(R2, 0x1FFFF648)  returns 0x00 (0000ms, 0843ms total)
T397C 001:090 JLINK_WriteReg(R3, 0x00000000)  returns 0x00 (0000ms, 0843ms total)
T397C 001:090 JLINK_WriteReg(R4, 0x00000000)  returns 0x00 (0000ms, 0843ms total)
T397C 001:090 JLINK_WriteReg(R5, 0x00000000)  returns 0x00 (0000ms, 0843ms total)
T397C 001:090 JLINK_WriteReg(R6, 0x00000000)  returns 0x00 (0000ms, 0843ms total)
T397C 001:090 JLINK_WriteReg(R7, 0x00000000)  returns 0x00 (0000ms, 0843ms total)
T397C 001:090 JLINK_WriteReg(R8, 0x00000000)  returns 0x00 (0000ms, 0843ms total)
T397C 001:090 JLINK_WriteReg(R9, 0x1FFFF618)  returns 0x00 (0000ms, 0843ms total)
T397C 001:090 JLINK_WriteReg(R10, 0x00000000)  returns 0x00 (0000ms, 0843ms total)
T397C 001:090 JLINK_WriteReg(R11, 0x00000000)  returns 0x00 (0000ms, 0843ms total)
T397C 001:090 JLINK_WriteReg(R12, 0x00000000)  returns 0x00 (0000ms, 0843ms total)
T397C 001:090 JLINK_WriteReg(R13 (SP), 0x1FFFF800)  returns 0x00 (0000ms, 0843ms total)
T397C 001:090 JLINK_WriteReg(R14, 0x1FFFF001)  returns 0x00 (0000ms, 0843ms total)
T397C 001:090 JLINK_WriteReg(R15 (PC), 0x1FFFF0D4)  returns 0x00 (0000ms, 0843ms total)
T397C 001:091 JLINK_WriteReg(XPSR, 0x01000000)  returns 0x00 (0000ms, 0843ms total)
T397C 001:091 JLINK_WriteReg(MSP, 0x1FFFF800)  returns 0x00 (0000ms, 0843ms total)
T397C 001:091 JLINK_WriteReg(PSP, 0x1FFFF800)  returns 0x00 (0000ms, 0843ms total)
T397C 001:091 JLINK_WriteReg(CFBP, 0x00000000)  returns 0x00 (0000ms, 0843ms total)
T397C 001:091 JLINK_SetBPEx(Addr = 0x1FFFF000, Type = 0xFFFFFFF2)  returns 0x00000005 (0000ms, 0843ms total)
T397C 001:091 JLINK_Go() -- CPU_WriteMem(4 bytes @ 0xE0002000) -- CPU_ReadMem(4 bytes @ 0xE0001000) -- CPU_WriteMem(4 bytes @ 0xE0001000) (0002ms, 0845ms total)
T397C 001:093 JLINK_IsHalted()  returns FALSE (0000ms, 0845ms total)
T397C 001:206 JLINK_IsHalted()  returns TRUE (0002ms, 0847ms total)
T397C 001:208 JLINK_ReadReg(R15 (PC))  returns 0x1FFFF000 (0000ms, 0845ms total)
T397C 001:208 JLINK_ClrBPEx(BPHandle = 0x00000005)  returns 0x00 (0000ms, 0845ms total)
T397C 001:208 JLINK_ReadReg(R0)  returns 0x00000000 (0000ms, 0845ms total)
T397C 001:208 JLINK_WriteMem(0x1FFFF648, 0x0100 Bytes, ...) - Data: 90 08 01 00 00 23 00 24 00 25 00 26 10 3A 01 D3 ... -- CPU_WriteMem(256 bytes @ 0x1FFFF648)  returns 0x100 (0002ms, 0847ms total)
T397C 001:210 JLINK_WriteReg(R0, 0x00000100)  returns 0x00 (0000ms, 0847ms total)
T397C 001:210 JLINK_WriteReg(R1, 0x00000100)  returns 0x00 (0000ms, 0847ms total)
T397C 001:210 JLINK_WriteReg(R2, 0x1FFFF648)  returns 0x00 (0000ms, 0847ms total)
T397C 001:210 JLINK_WriteReg(R3, 0x00000000)  returns 0x00 (0000ms, 0847ms total)
T397C 001:210 JLINK_WriteReg(R4, 0x00000000)  returns 0x00 (0000ms, 0847ms total)
T397C 001:210 JLINK_WriteReg(R5, 0x00000000)  returns 0x00 (0000ms, 0847ms total)
T397C 001:210 JLINK_WriteReg(R6, 0x00000000)  returns 0x00 (0000ms, 0847ms total)
T397C 001:210 JLINK_WriteReg(R7, 0x00000000)  returns 0x00 (0000ms, 0847ms total)
T397C 001:210 JLINK_WriteReg(R8, 0x00000000)  returns 0x00 (0000ms, 0847ms total)
T397C 001:210 JLINK_WriteReg(R9, 0x1FFFF618)  returns 0x00 (0000ms, 0847ms total)
T397C 001:210 JLINK_WriteReg(R10, 0x00000000)  returns 0x00 (0000ms, 0847ms total)
T397C 001:210 JLINK_WriteReg(R11, 0x00000000)  returns 0x00 (0000ms, 0847ms total)
T397C 001:210 JLINK_WriteReg(R12, 0x00000000)  returns 0x00 (0000ms, 0847ms total)
T397C 001:210 JLINK_WriteReg(R13 (SP), 0x1FFFF800)  returns 0x00 (0000ms, 0847ms total)
T397C 001:210 JLINK_WriteReg(R14, 0x1FFFF001)  returns 0x00 (0000ms, 0847ms total)
T397C 001:210 JLINK_WriteReg(R15 (PC), 0x1FFFF0D4)  returns 0x00 (0000ms, 0847ms total)
T397C 001:210 JLINK_WriteReg(XPSR, 0x01000000)  returns 0x00 (0000ms, 0847ms total)
T397C 001:210 JLINK_WriteReg(MSP, 0x1FFFF800)  returns 0x00 (0000ms, 0847ms total)
T397C 001:210 JLINK_WriteReg(PSP, 0x1FFFF800)  returns 0x00 (0000ms, 0847ms total)
T397C 001:210 JLINK_WriteReg(CFBP, 0x00000000)  returns 0x00 (0000ms, 0847ms total)
T397C 001:210 JLINK_SetBPEx(Addr = 0x1FFFF000, Type = 0xFFFFFFF2)  returns 0x00000006 (0000ms, 0847ms total)
T397C 001:210 JLINK_Go() -- CPU_WriteMem(4 bytes @ 0xE0002000) -- CPU_ReadMem(4 bytes @ 0xE0001000) -- CPU_WriteMem(4 bytes @ 0xE0001000) (0003ms, 0850ms total)
T397C 001:213 JLINK_IsHalted()  returns FALSE (0000ms, 0850ms total)
T397C 001:309 JLINK_IsHalted()  returns TRUE (0002ms, 0852ms total)
T397C 001:311 JLINK_ReadReg(R15 (PC))  returns 0x1FFFF000 (0000ms, 0850ms total)
T397C 001:311 JLINK_ClrBPEx(BPHandle = 0x00000006)  returns 0x00 (0000ms, 0850ms total)
T397C 001:311 JLINK_ReadReg(R0)  returns 0x00000000 (0000ms, 0850ms total)
T397C 001:311 JLINK_WriteMem(0x1FFFF648, 0x0100 Bytes, ...) - Data: 03 E0 40 1C 06 49 88 42 F4 DB 00 BF 70 47 05 48 ... -- CPU_WriteMem(256 bytes @ 0x1FFFF648)  returns 0x100 (0002ms, 0852ms total)
T397C 001:313 JLINK_WriteReg(R0, 0x00000200)  returns 0x00 (0000ms, 0852ms total)
T397C 001:313 JLINK_WriteReg(R1, 0x00000100)  returns 0x00 (0000ms, 0852ms total)
T397C 001:313 JLINK_WriteReg(R2, 0x1FFFF648)  returns 0x00 (0000ms, 0852ms total)
T397C 001:313 JLINK_WriteReg(R3, 0x00000000)  returns 0x00 (0000ms, 0852ms total)
T397C 001:313 JLINK_WriteReg(R4, 0x00000000)  returns 0x00 (0000ms, 0852ms total)
T397C 001:313 JLINK_WriteReg(R5, 0x00000000)  returns 0x00 (0000ms, 0852ms total)
T397C 001:313 JLINK_WriteReg(R6, 0x00000000)  returns 0x00 (0000ms, 0852ms total)
T397C 001:313 JLINK_WriteReg(R7, 0x00000000)  returns 0x00 (0000ms, 0852ms total)
T397C 001:313 JLINK_WriteReg(R8, 0x00000000)  returns 0x00 (0000ms, 0852ms total)
T397C 001:313 JLINK_WriteReg(R9, 0x1FFFF618)  returns 0x00 (0000ms, 0852ms total)
T397C 001:313 JLINK_WriteReg(R10, 0x00000000)  returns 0x00 (0000ms, 0852ms total)
T397C 001:313 JLINK_WriteReg(R11, 0x00000000)  returns 0x00 (0000ms, 0852ms total)
T397C 001:313 JLINK_WriteReg(R12, 0x00000000)  returns 0x00 (0000ms, 0852ms total)
T397C 001:313 JLINK_WriteReg(R13 (SP), 0x1FFFF800)  returns 0x00 (0000ms, 0852ms total)
T397C 001:313 JLINK_WriteReg(R14, 0x1FFFF001)  returns 0x00 (0000ms, 0852ms total)
T397C 001:313 JLINK_WriteReg(R15 (PC), 0x1FFFF0D4)  returns 0x00 (0000ms, 0852ms total)
T397C 001:313 JLINK_WriteReg(XPSR, 0x01000000)  returns 0x00 (0000ms, 0852ms total)
T397C 001:313 JLINK_WriteReg(MSP, 0x1FFFF800)  returns 0x00 (0000ms, 0852ms total)
T397C 001:313 JLINK_WriteReg(PSP, 0x1FFFF800)  returns 0x00 (0000ms, 0852ms total)
T397C 001:313 JLINK_WriteReg(CFBP, 0x00000000)  returns 0x00 (0001ms, 0853ms total)
T397C 001:314 JLINK_SetBPEx(Addr = 0x1FFFF000, Type = 0xFFFFFFF2)  returns 0x00000007 (0000ms, 0853ms total)
T397C 001:314 JLINK_Go() -- CPU_WriteMem(4 bytes @ 0xE0002000) -- CPU_ReadMem(4 bytes @ 0xE0001000) -- CPU_WriteMem(4 bytes @ 0xE0001000) (0002ms, 0855ms total)
T397C 001:316 JLINK_IsHalted()  returns FALSE (0000ms, 0855ms total)
T397C 001:410 JLINK_IsHalted()  returns TRUE (0002ms, 0857ms total)
T397C 001:412 JLINK_ReadReg(R15 (PC))  returns 0x1FFFF000 (0000ms, 0855ms total)
T397C 001:412 JLINK_ClrBPEx(BPHandle = 0x00000007)  returns 0x00 (0000ms, 0855ms total)
T397C 001:412 JLINK_ReadReg(R0)  returns 0x00000000 (0000ms, 0855ms total)
T397C 001:412 JLINK_WriteMem(0x1FFFF648, 0x0100 Bytes, ...) - Data: 1D 48 01 68 21 48 09 F0 FF FC 4B 22 D2 01 1A 48 ... -- CPU_WriteMem(256 bytes @ 0x1FFFF648)  returns 0x100 (0002ms, 0857ms total)
T397C 001:414 JLINK_WriteReg(R0, 0x00000300)  returns 0x00 (0000ms, 0857ms total)
T397C 001:414 JLINK_WriteReg(R1, 0x00000100)  returns 0x00 (0000ms, 0857ms total)
T397C 001:414 JLINK_WriteReg(R2, 0x1FFFF648)  returns 0x00 (0000ms, 0857ms total)
T397C 001:414 JLINK_WriteReg(R3, 0x00000000)  returns 0x00 (0000ms, 0857ms total)
T397C 001:414 JLINK_WriteReg(R4, 0x00000000)  returns 0x00 (0000ms, 0857ms total)
T397C 001:414 JLINK_WriteReg(R5, 0x00000000)  returns 0x00 (0000ms, 0857ms total)
T397C 001:414 JLINK_WriteReg(R6, 0x00000000)  returns 0x00 (0000ms, 0857ms total)
T397C 001:414 JLINK_WriteReg(R7, 0x00000000)  returns 0x00 (0000ms, 0857ms total)
T397C 001:414 JLINK_WriteReg(R8, 0x00000000)  returns 0x00 (0000ms, 0857ms total)
T397C 001:414 JLINK_WriteReg(R9, 0x1FFFF618)  returns 0x00 (0000ms, 0857ms total)
T397C 001:414 JLINK_WriteReg(R10, 0x00000000)  returns 0x00 (0000ms, 0857ms total)
T397C 001:414 JLINK_WriteReg(R11, 0x00000000)  returns 0x00 (0000ms, 0857ms total)
T397C 001:414 JLINK_WriteReg(R12, 0x00000000)  returns 0x00 (0000ms, 0857ms total)
T397C 001:414 JLINK_WriteReg(R13 (SP), 0x1FFFF800)  returns 0x00 (0000ms, 0857ms total)
T397C 001:414 JLINK_WriteReg(R14, 0x1FFFF001)  returns 0x00 (0000ms, 0857ms total)
T397C 001:414 JLINK_WriteReg(R15 (PC), 0x1FFFF0D4)  returns 0x00 (0000ms, 0857ms total)
T397C 001:414 JLINK_WriteReg(XPSR, 0x01000000)  returns 0x00 (0000ms, 0857ms total)
T397C 001:414 JLINK_WriteReg(MSP, 0x1FFFF800)  returns 0x00 (0000ms, 0857ms total)
T397C 001:414 JLINK_WriteReg(PSP, 0x1FFFF800)  returns 0x00 (0000ms, 0857ms total)
T397C 001:414 JLINK_WriteReg(CFBP, 0x00000000)  returns 0x00 (0000ms, 0857ms total)
T397C 001:414 JLINK_SetBPEx(Addr = 0x1FFFF000, Type = 0xFFFFFFF2)  returns 0x00000008 (0000ms, 0857ms total)
T397C 001:414 JLINK_Go() -- CPU_WriteMem(4 bytes @ 0xE0002000) -- CPU_ReadMem(4 bytes @ 0xE0001000) -- CPU_WriteMem(4 bytes @ 0xE0001000) (0002ms, 0859ms total)
T397C 001:416 JLINK_IsHalted()  returns FALSE (0000ms, 0859ms total)
T397C 001:418 JLINK_IsHalted()  returns FALSE (0000ms, 0859ms total)
T397C 001:420 JLINK_IsHalted()  returns FALSE (0001ms, 0860ms total)
T397C 001:423 JLINK_IsHalted()  returns TRUE (0001ms, 0860ms total)
T397C 001:424 JLINK_ReadReg(R15 (PC))  returns 0x1FFFF000 (0001ms, 0860ms total)
T397C 001:425 JLINK_ClrBPEx(BPHandle = 0x00000008)  returns 0x00 (0000ms, 0860ms total)
T397C 001:425 JLINK_ReadReg(R0)  returns 0x00000000 (0000ms, 0860ms total)
T397C 001:426 JLINK_WriteMem(0x1FFFF648, 0x0100 Bytes, ...) - Data: FF FF FF FF FF FF FF FF FF FF FF FF FE FF FF FF ... -- CPU_WriteMem(256 bytes @ 0x1FFFF648)  returns 0x100 (0001ms, 0861ms total)
T397C 001:427 JLINK_WriteReg(R0, 0x00000400)  returns 0x00 (0000ms, 0861ms total)
T397C 001:427 JLINK_WriteReg(R1, 0x00000100)  returns 0x00 (0000ms, 0861ms total)
T397C 001:427 JLINK_WriteReg(R2, 0x1FFFF648)  returns 0x00 (0000ms, 0861ms total)
T397C 001:427 JLINK_WriteReg(R3, 0x00000000)  returns 0x00 (0000ms, 0861ms total)
T397C 001:427 JLINK_WriteReg(R4, 0x00000000)  returns 0x00 (0000ms, 0861ms total)
T397C 001:427 JLINK_WriteReg(R5, 0x00000000)  returns 0x00 (0000ms, 0861ms total)
T397C 001:427 JLINK_WriteReg(R6, 0x00000000)  returns 0x00 (0000ms, 0861ms total)
T397C 001:427 JLINK_WriteReg(R7, 0x00000000)  returns 0x00 (0000ms, 0861ms total)
T397C 001:427 JLINK_WriteReg(R8, 0x00000000)  returns 0x00 (0000ms, 0861ms total)
T397C 001:427 JLINK_WriteReg(R9, 0x1FFFF618)  returns 0x00 (0000ms, 0861ms total)
T397C 001:427 JLINK_WriteReg(R10, 0x00000000)  returns 0x00 (0000ms, 0861ms total)
T397C 001:427 JLINK_WriteReg(R11, 0x00000000)  returns 0x00 (0000ms, 0861ms total)
T397C 001:427 JLINK_WriteReg(R12, 0x00000000)  returns 0x00 (0000ms, 0861ms total)
T397C 001:427 JLINK_WriteReg(R13 (SP), 0x1FFFF800)  returns 0x00 (0000ms, 0861ms total)
T397C 001:427 JLINK_WriteReg(R14, 0x1FFFF001)  returns 0x00 (0000ms, 0861ms total)
T397C 001:427 JLINK_WriteReg(R15 (PC), 0x1FFFF0D4)  returns 0x00 (0000ms, 0861ms total)
T397C 001:427 JLINK_WriteReg(XPSR, 0x01000000)  returns 0x00 (0000ms, 0861ms total)
T397C 001:427 JLINK_WriteReg(MSP, 0x1FFFF800)  returns 0x00 (0000ms, 0861ms total)
T397C 001:427 JLINK_WriteReg(PSP, 0x1FFFF800)  returns 0x00 (0000ms, 0861ms total)
T397C 001:427 JLINK_WriteReg(CFBP, 0x00000000)  returns 0x00 (0000ms, 0861ms total)
T397C 001:427 JLINK_SetBPEx(Addr = 0x1FFFF000, Type = 0xFFFFFFF2)  returns 0x00000009 (0000ms, 0861ms total)
T397C 001:427 JLINK_Go() -- CPU_WriteMem(4 bytes @ 0xE0002000) -- CPU_ReadMem(4 bytes @ 0xE0001000) -- CPU_WriteMem(4 bytes @ 0xE0001000) (0002ms, 0863ms total)
T397C 001:429 JLINK_IsHalted()  returns FALSE (0001ms, 0864ms total)
T397C 001:432 JLINK_IsHalted()  returns FALSE (0000ms, 0863ms total)
T397C 001:434 JLINK_IsHalted()  returns FALSE (0000ms, 0863ms total)
T397C 001:436 JLINK_IsHalted()  returns TRUE (0001ms, 0864ms total)
T397C 001:437 JLINK_ReadReg(R15 (PC))  returns 0x1FFFF000 (0000ms, 0863ms total)
T397C 001:437 JLINK_ClrBPEx(BPHandle = 0x00000009)  returns 0x00 (0000ms, 0863ms total)
T397C 001:437 JLINK_ReadReg(R0)  returns 0x00000000 (0000ms, 0863ms total)
T397C 001:438 JLINK_WriteMem(0x1FFFF648, 0x0100 Bytes, ...) - Data: 09 F0 65 FC 1A 21 C1 48 09 F0 61 FC 1A 21 BF 48 ... -- CPU_WriteMem(256 bytes @ 0x1FFFF648)  returns 0x100 (0001ms, 0864ms total)
T397C 001:439 JLINK_WriteReg(R0, 0x00000500)  returns 0x00 (0000ms, 0864ms total)
T397C 001:439 JLINK_WriteReg(R1, 0x00000100)  returns 0x00 (0000ms, 0864ms total)
T397C 001:439 JLINK_WriteReg(R2, 0x1FFFF648)  returns 0x00 (0000ms, 0864ms total)
T397C 001:439 JLINK_WriteReg(R3, 0x00000000)  returns 0x00 (0000ms, 0864ms total)
T397C 001:439 JLINK_WriteReg(R4, 0x00000000)  returns 0x00 (0000ms, 0864ms total)
T397C 001:439 JLINK_WriteReg(R5, 0x00000000)  returns 0x00 (0000ms, 0864ms total)
T397C 001:439 JLINK_WriteReg(R6, 0x00000000)  returns 0x00 (0000ms, 0864ms total)
T397C 001:439 JLINK_WriteReg(R7, 0x00000000)  returns 0x00 (0000ms, 0864ms total)
T397C 001:439 JLINK_WriteReg(R8, 0x00000000)  returns 0x00 (0001ms, 0865ms total)
T397C 001:440 JLINK_WriteReg(R9, 0x1FFFF618)  returns 0x00 (0000ms, 0865ms total)
T397C 001:440 JLINK_WriteReg(R10, 0x00000000)  returns 0x00 (0000ms, 0865ms total)
T397C 001:440 JLINK_WriteReg(R11, 0x00000000)  returns 0x00 (0000ms, 0865ms total)
T397C 001:440 JLINK_WriteReg(R12, 0x00000000)  returns 0x00 (0000ms, 0865ms total)
T397C 001:440 JLINK_WriteReg(R13 (SP), 0x1FFFF800)  returns 0x00 (0000ms, 0865ms total)
T397C 001:440 JLINK_WriteReg(R14, 0x1FFFF001)  returns 0x00 (0000ms, 0865ms total)
T397C 001:440 JLINK_WriteReg(R15 (PC), 0x1FFFF0D4)  returns 0x00 (0000ms, 0865ms total)
T397C 001:440 JLINK_WriteReg(XPSR, 0x01000000)  returns 0x00 (0000ms, 0865ms total)
T397C 001:440 JLINK_WriteReg(MSP, 0x1FFFF800)  returns 0x00 (0000ms, 0865ms total)
T397C 001:440 JLINK_WriteReg(PSP, 0x1FFFF800)  returns 0x00 (0000ms, 0865ms total)
T397C 001:440 JLINK_WriteReg(CFBP, 0x00000000)  returns 0x00 (0000ms, 0865ms total)
T397C 001:440 JLINK_SetBPEx(Addr = 0x1FFFF000, Type = 0xFFFFFFF2)  returns 0x0000000A (0000ms, 0865ms total)
T397C 001:440 JLINK_Go() -- CPU_WriteMem(4 bytes @ 0xE0002000) -- CPU_ReadMem(4 bytes @ 0xE0001000) -- CPU_WriteMem(4 bytes @ 0xE0001000) (0002ms, 0867ms total)
T397C 001:442 JLINK_IsHalted()  returns FALSE (0000ms, 0867ms total)
T397C 001:444 JLINK_IsHalted()  returns FALSE (0000ms, 0867ms total)
T397C 001:446 JLINK_IsHalted()  returns FALSE (0001ms, 0868ms total)
T397C 001:449 JLINK_IsHalted()  returns TRUE (0001ms, 0868ms total)
T397C 001:450 JLINK_ReadReg(R15 (PC))  returns 0x1FFFF000 (0000ms, 0867ms total)
T397C 001:450 JLINK_ClrBPEx(BPHandle = 0x0000000A)  returns 0x00 (0000ms, 0867ms total)
T397C 001:450 JLINK_ReadReg(R0)  returns 0x00000000 (0000ms, 0867ms total)
T397C 001:451 JLINK_WriteMem(0x1FFFF648, 0x0100 Bytes, ...) - Data: 05 B0 F0 BD 70 B5 04 46 0D 46 20 46 08 F0 DC FA ... -- CPU_WriteMem(256 bytes @ 0x1FFFF648)  returns 0x100 (0002ms, 0869ms total)
T397C 001:453 JLINK_WriteReg(R0, 0x00000600)  returns 0x00 (0000ms, 0869ms total)
T397C 001:453 JLINK_WriteReg(R1, 0x00000100)  returns 0x00 (0000ms, 0869ms total)
T397C 001:453 JLINK_WriteReg(R2, 0x1FFFF648)  returns 0x00 (0000ms, 0869ms total)
T397C 001:453 JLINK_WriteReg(R3, 0x00000000)  returns 0x00 (0000ms, 0869ms total)
T397C 001:453 JLINK_WriteReg(R4, 0x00000000)  returns 0x00 (0000ms, 0869ms total)
T397C 001:453 JLINK_WriteReg(R5, 0x00000000)  returns 0x00 (0000ms, 0869ms total)
T397C 001:453 JLINK_WriteReg(R6, 0x00000000)  returns 0x00 (0000ms, 0869ms total)
T397C 001:453 JLINK_WriteReg(R7, 0x00000000)  returns 0x00 (0000ms, 0869ms total)
T397C 001:453 JLINK_WriteReg(R8, 0x00000000)  returns 0x00 (0000ms, 0869ms total)
T397C 001:453 JLINK_WriteReg(R9, 0x1FFFF618)  returns 0x00 (0000ms, 0869ms total)
T397C 001:453 JLINK_WriteReg(R10, 0x00000000)  returns 0x00 (0000ms, 0869ms total)
T397C 001:453 JLINK_WriteReg(R11, 0x00000000)  returns 0x00 (0000ms, 0869ms total)
T397C 001:453 JLINK_WriteReg(R12, 0x00000000)  returns 0x00 (0000ms, 0869ms total)
T397C 001:453 JLINK_WriteReg(R13 (SP), 0x1FFFF800)  returns 0x00 (0000ms, 0869ms total)
T397C 001:453 JLINK_WriteReg(R14, 0x1FFFF001)  returns 0x00 (0000ms, 0869ms total)
T397C 001:453 JLINK_WriteReg(R15 (PC), 0x1FFFF0D4)  returns 0x00 (0000ms, 0869ms total)
T397C 001:453 JLINK_WriteReg(XPSR, 0x01000000)  returns 0x00 (0000ms, 0869ms total)
T397C 001:453 JLINK_WriteReg(MSP, 0x1FFFF800)  returns 0x00 (0000ms, 0869ms total)
T397C 001:453 JLINK_WriteReg(PSP, 0x1FFFF800)  returns 0x00 (0000ms, 0869ms total)
T397C 001:453 JLINK_WriteReg(CFBP, 0x00000000)  returns 0x00 (0000ms, 0869ms total)
T397C 001:453 JLINK_SetBPEx(Addr = 0x1FFFF000, Type = 0xFFFFFFF2)  returns 0x0000000B (0000ms, 0869ms total)
T397C 001:453 JLINK_Go() -- CPU_WriteMem(4 bytes @ 0xE0002000) -- CPU_ReadMem(4 bytes @ 0xE0001000) -- CPU_WriteMem(4 bytes @ 0xE0001000) (0002ms, 0871ms total)
T397C 001:455 JLINK_IsHalted()  returns FALSE (0000ms, 0871ms total)
T397C 001:457 JLINK_IsHalted()  returns FALSE (0000ms, 0871ms total)
T397C 001:458 JLINK_IsHalted()  returns FALSE (0000ms, 0871ms total)
T397C 001:460 JLINK_IsHalted()  returns FALSE (0000ms, 0871ms total)
T397C 001:461 JLINK_IsHalted()  returns TRUE (0002ms, 0873ms total)
T397C 001:463 JLINK_ReadReg(R15 (PC))  returns 0x1FFFF000 (0000ms, 0871ms total)
T397C 001:463 JLINK_ClrBPEx(BPHandle = 0x0000000B)  returns 0x00 (0000ms, 0871ms total)
T397C 001:463 JLINK_ReadReg(R0)  returns 0x00000000 (0000ms, 0871ms total)
T397C 001:464 JLINK_WriteMem(0x1FFFF648, 0x0100 Bytes, ...) - Data: 01 20 40 07 55 49 88 60 80 00 48 60 20 20 53 49 ... -- CPU_WriteMem(256 bytes @ 0x1FFFF648)  returns 0x100 (0001ms, 0872ms total)
T397C 001:465 JLINK_WriteReg(R0, 0x00000700)  returns 0x00 (0000ms, 0872ms total)
T397C 001:465 JLINK_WriteReg(R1, 0x00000100)  returns 0x00 (0000ms, 0872ms total)
T397C 001:465 JLINK_WriteReg(R2, 0x1FFFF648)  returns 0x00 (0000ms, 0872ms total)
T397C 001:465 JLINK_WriteReg(R3, 0x00000000)  returns 0x00 (0000ms, 0872ms total)
T397C 001:465 JLINK_WriteReg(R4, 0x00000000)  returns 0x00 (0000ms, 0872ms total)
T397C 001:465 JLINK_WriteReg(R5, 0x00000000)  returns 0x00 (0000ms, 0872ms total)
T397C 001:465 JLINK_WriteReg(R6, 0x00000000)  returns 0x00 (0000ms, 0872ms total)
T397C 001:465 JLINK_WriteReg(R7, 0x00000000)  returns 0x00 (0000ms, 0872ms total)
T397C 001:465 JLINK_WriteReg(R8, 0x00000000)  returns 0x00 (0000ms, 0872ms total)
T397C 001:465 JLINK_WriteReg(R9, 0x1FFFF618)  returns 0x00 (0000ms, 0872ms total)
T397C 001:465 JLINK_WriteReg(R10, 0x00000000)  returns 0x00 (0000ms, 0872ms total)
T397C 001:465 JLINK_WriteReg(R11, 0x00000000)  returns 0x00 (0000ms, 0872ms total)
T397C 001:465 JLINK_WriteReg(R12, 0x00000000)  returns 0x00 (0000ms, 0872ms total)
T397C 001:465 JLINK_WriteReg(R13 (SP), 0x1FFFF800)  returns 0x00 (0000ms, 0872ms total)
T397C 001:465 JLINK_WriteReg(R14, 0x1FFFF001)  returns 0x00 (0000ms, 0872ms total)
T397C 001:465 JLINK_WriteReg(R15 (PC), 0x1FFFF0D4)  returns 0x00 (0000ms, 0872ms total)
T397C 001:465 JLINK_WriteReg(XPSR, 0x01000000)  returns 0x00 (0000ms, 0872ms total)
T397C 001:465 JLINK_WriteReg(MSP, 0x1FFFF800)  returns 0x00 (0000ms, 0872ms total)
T397C 001:465 JLINK_WriteReg(PSP, 0x1FFFF800)  returns 0x00 (0000ms, 0872ms total)
T397C 001:465 JLINK_WriteReg(CFBP, 0x00000000)  returns 0x00 (0000ms, 0872ms total)
T397C 001:465 JLINK_SetBPEx(Addr = 0x1FFFF000, Type = 0xFFFFFFF2)  returns 0x0000000C (0000ms, 0872ms total)
T397C 001:466 JLINK_Go() -- CPU_WriteMem(4 bytes @ 0xE0002000) -- CPU_ReadMem(4 bytes @ 0xE0001000) -- CPU_WriteMem(4 bytes @ 0xE0001000) (0002ms, 0875ms total)
T397C 001:468 JLINK_IsHalted()  returns FALSE (0000ms, 0875ms total)
T397C 001:469 JLINK_IsHalted()  returns FALSE (0001ms, 0876ms total)
T397C 001:471 JLINK_IsHalted()  returns FALSE (0000ms, 0875ms total)
T397C 001:472 JLINK_IsHalted()  returns FALSE (0000ms, 0875ms total)
T397C 001:474 JLINK_IsHalted()  returns TRUE (0001ms, 0876ms total)
T397C 001:475 JLINK_ReadReg(R15 (PC))  returns 0x1FFFF000 (0000ms, 0875ms total)
T397C 001:475 JLINK_ClrBPEx(BPHandle = 0x0000000C)  returns 0x00 (0001ms, 0876ms total)
T397C 001:476 JLINK_ReadReg(R0)  returns 0x00000000 (0000ms, 0876ms total)
T397C 001:476 JLINK_WriteMem(0x1FFFF648, 0x0100 Bytes, ...) - Data: 08 60 39 46 05 48 09 F0 B1 FD 35 E0 00 B0 06 40 ... -- CPU_WriteMem(256 bytes @ 0x1FFFF648)  returns 0x100 (0002ms, 0878ms total)
T397C 001:478 JLINK_WriteReg(R0, 0x00000800)  returns 0x00 (0000ms, 0878ms total)
T397C 001:478 JLINK_WriteReg(R1, 0x00000100)  returns 0x00 (0000ms, 0878ms total)
T397C 001:478 JLINK_WriteReg(R2, 0x1FFFF648)  returns 0x00 (0000ms, 0878ms total)
T397C 001:478 JLINK_WriteReg(R3, 0x00000000)  returns 0x00 (0000ms, 0878ms total)
T397C 001:478 JLINK_WriteReg(R4, 0x00000000)  returns 0x00 (0000ms, 0878ms total)
T397C 001:478 JLINK_WriteReg(R5, 0x00000000)  returns 0x00 (0000ms, 0878ms total)
T397C 001:478 JLINK_WriteReg(R6, 0x00000000)  returns 0x00 (0000ms, 0878ms total)
T397C 001:478 JLINK_WriteReg(R7, 0x00000000)  returns 0x00 (0000ms, 0878ms total)
T397C 001:478 JLINK_WriteReg(R8, 0x00000000)  returns 0x00 (0000ms, 0878ms total)
T397C 001:478 JLINK_WriteReg(R9, 0x1FFFF618)  returns 0x00 (0000ms, 0878ms total)
T397C 001:478 JLINK_WriteReg(R10, 0x00000000)  returns 0x00 (0000ms, 0878ms total)
T397C 001:478 JLINK_WriteReg(R11, 0x00000000)  returns 0x00 (0000ms, 0878ms total)
T397C 001:478 JLINK_WriteReg(R12, 0x00000000)  returns 0x00 (0000ms, 0878ms total)
T397C 001:478 JLINK_WriteReg(R13 (SP), 0x1FFFF800)  returns 0x00 (0000ms, 0878ms total)
T397C 001:478 JLINK_WriteReg(R14, 0x1FFFF001)  returns 0x00 (0000ms, 0878ms total)
T397C 001:478 JLINK_WriteReg(R15 (PC), 0x1FFFF0D4)  returns 0x00 (0000ms, 0878ms total)
T397C 001:478 JLINK_WriteReg(XPSR, 0x01000000)  returns 0x00 (0000ms, 0878ms total)
T397C 001:478 JLINK_WriteReg(MSP, 0x1FFFF800)  returns 0x00 (0000ms, 0878ms total)
T397C 001:478 JLINK_WriteReg(PSP, 0x1FFFF800)  returns 0x00 (0000ms, 0878ms total)
T397C 001:478 JLINK_WriteReg(CFBP, 0x00000000)  returns 0x00 (0000ms, 0878ms total)
T397C 001:478 JLINK_SetBPEx(Addr = 0x1FFFF000, Type = 0xFFFFFFF2)  returns 0x0000000D (0000ms, 0878ms total)
T397C 001:478 JLINK_Go() -- CPU_WriteMem(4 bytes @ 0xE0002000) -- CPU_ReadMem(4 bytes @ 0xE0001000) -- CPU_WriteMem(4 bytes @ 0xE0001000) (0002ms, 0880ms total)
T397C 001:480 JLINK_IsHalted()  returns FALSE (0000ms, 0880ms total)
T397C 001:482 JLINK_IsHalted()  returns FALSE (0000ms, 0880ms total)
T397C 001:484 JLINK_IsHalted()  returns FALSE (0001ms, 0881ms total)
T397C 001:487 JLINK_IsHalted()  returns TRUE (0001ms, 0881ms total)
T397C 001:488 JLINK_ReadReg(R15 (PC))  returns 0x1FFFF000 (0000ms, 0880ms total)
T397C 001:488 JLINK_ClrBPEx(BPHandle = 0x0000000D)  returns 0x00 (0000ms, 0880ms total)
T397C 001:488 JLINK_ReadReg(R0)  returns 0x00000000 (0000ms, 0880ms total)
T397C 001:489 JLINK_WriteMem(0x1FFFF648, 0x0100 Bytes, ...) - Data: 31 D0 00 20 ED 49 08 60 0C E0 EC 48 00 68 21 5C ... -- CPU_WriteMem(256 bytes @ 0x1FFFF648)  returns 0x100 (0002ms, 0882ms total)
T397C 001:491 JLINK_WriteReg(R0, 0x00000900)  returns 0x00 (0000ms, 0882ms total)
T397C 001:491 JLINK_WriteReg(R1, 0x00000100)  returns 0x00 (0000ms, 0882ms total)
T397C 001:491 JLINK_WriteReg(R2, 0x1FFFF648)  returns 0x00 (0000ms, 0882ms total)
T397C 001:491 JLINK_WriteReg(R3, 0x00000000)  returns 0x00 (0000ms, 0882ms total)
T397C 001:491 JLINK_WriteReg(R4, 0x00000000)  returns 0x00 (0000ms, 0882ms total)
T397C 001:491 JLINK_WriteReg(R5, 0x00000000)  returns 0x00 (0000ms, 0882ms total)
T397C 001:491 JLINK_WriteReg(R6, 0x00000000)  returns 0x00 (0000ms, 0882ms total)
T397C 001:491 JLINK_WriteReg(R7, 0x00000000)  returns 0x00 (0000ms, 0882ms total)
T397C 001:491 JLINK_WriteReg(R8, 0x00000000)  returns 0x00 (0000ms, 0882ms total)
T397C 001:491 JLINK_WriteReg(R9, 0x1FFFF618)  returns 0x00 (0000ms, 0882ms total)
T397C 001:491 JLINK_WriteReg(R10, 0x00000000)  returns 0x00 (0000ms, 0882ms total)
T397C 001:491 JLINK_WriteReg(R11, 0x00000000)  returns 0x00 (0000ms, 0882ms total)
T397C 001:491 JLINK_WriteReg(R12, 0x00000000)  returns 0x00 (0000ms, 0882ms total)
T397C 001:491 JLINK_WriteReg(R13 (SP), 0x1FFFF800)  returns 0x00 (0000ms, 0882ms total)
T397C 001:491 JLINK_WriteReg(R14, 0x1FFFF001)  returns 0x00 (0000ms, 0882ms total)
T397C 001:491 JLINK_WriteReg(R15 (PC), 0x1FFFF0D4)  returns 0x00 (0000ms, 0882ms total)
T397C 001:491 JLINK_WriteReg(XPSR, 0x01000000)  returns 0x00 (0000ms, 0882ms total)
T397C 001:491 JLINK_WriteReg(MSP, 0x1FFFF800)  returns 0x00 (0000ms, 0882ms total)
T397C 001:491 JLINK_WriteReg(PSP, 0x1FFFF800)  returns 0x00 (0000ms, 0882ms total)
T397C 001:491 JLINK_WriteReg(CFBP, 0x00000000)  returns 0x00 (0000ms, 0882ms total)
T397C 001:491 JLINK_SetBPEx(Addr = 0x1FFFF000, Type = 0xFFFFFFF2)  returns 0x0000000E (0000ms, 0882ms total)
T397C 001:491 JLINK_Go() -- CPU_WriteMem(4 bytes @ 0xE0002000) -- CPU_ReadMem(4 bytes @ 0xE0001000) -- CPU_WriteMem(4 bytes @ 0xE0001000) (0002ms, 0884ms total)
T397C 001:493 JLINK_IsHalted()  returns FALSE (0000ms, 0884ms total)
T397C 001:496 JLINK_IsHalted()  returns FALSE (0001ms, 0885ms total)
T397C 001:499 JLINK_IsHalted()  returns TRUE (0001ms, 0885ms total)
T397C 001:500 JLINK_ReadReg(R15 (PC))  returns 0x1FFFF000 (0000ms, 0884ms total)
T397C 001:500 JLINK_ClrBPEx(BPHandle = 0x0000000E)  returns 0x00 (0000ms, 0884ms total)
T397C 001:501 JLINK_ReadReg(R0)  returns 0x00000000 (0000ms, 0884ms total)
T397C 001:501 JLINK_WriteMem(0x1FFFF648, 0x0100 Bytes, ...) - Data: B7 48 00 68 64 28 E0 DB 00 20 B5 49 08 60 B5 49 ... -- CPU_WriteMem(256 bytes @ 0x1FFFF648)  returns 0x100 (0002ms, 0886ms total)
T397C 001:503 JLINK_WriteReg(R0, 0x00000A00)  returns 0x00 (0000ms, 0886ms total)
T397C 001:503 JLINK_WriteReg(R1, 0x00000100)  returns 0x00 (0000ms, 0886ms total)
T397C 001:503 JLINK_WriteReg(R2, 0x1FFFF648)  returns 0x00 (0000ms, 0886ms total)
T397C 001:503 JLINK_WriteReg(R3, 0x00000000)  returns 0x00 (0000ms, 0886ms total)
T397C 001:503 JLINK_WriteReg(R4, 0x00000000)  returns 0x00 (0000ms, 0886ms total)
T397C 001:503 JLINK_WriteReg(R5, 0x00000000)  returns 0x00 (0000ms, 0886ms total)
T397C 001:503 JLINK_WriteReg(R6, 0x00000000)  returns 0x00 (0000ms, 0886ms total)
T397C 001:503 JLINK_WriteReg(R7, 0x00000000)  returns 0x00 (0000ms, 0886ms total)
T397C 001:503 JLINK_WriteReg(R8, 0x00000000)  returns 0x00 (0000ms, 0886ms total)
T397C 001:503 JLINK_WriteReg(R9, 0x1FFFF618)  returns 0x00 (0000ms, 0886ms total)
T397C 001:503 JLINK_WriteReg(R10, 0x00000000)  returns 0x00 (0000ms, 0886ms total)
T397C 001:503 JLINK_WriteReg(R11, 0x00000000)  returns 0x00 (0000ms, 0886ms total)
T397C 001:503 JLINK_WriteReg(R12, 0x00000000)  returns 0x00 (0000ms, 0886ms total)
T397C 001:503 JLINK_WriteReg(R13 (SP), 0x1FFFF800)  returns 0x00 (0000ms, 0886ms total)
T397C 001:503 JLINK_WriteReg(R14, 0x1FFFF001)  returns 0x00 (0000ms, 0886ms total)
T397C 001:503 JLINK_WriteReg(R15 (PC), 0x1FFFF0D4)  returns 0x00 (0000ms, 0886ms total)
T397C 001:503 JLINK_WriteReg(XPSR, 0x01000000)  returns 0x00 (0000ms, 0886ms total)
T397C 001:503 JLINK_WriteReg(MSP, 0x1FFFF800)  returns 0x00 (0001ms, 0887ms total)
T397C 001:504 JLINK_WriteReg(PSP, 0x1FFFF800)  returns 0x00 (0000ms, 0887ms total)
T397C 001:504 JLINK_WriteReg(CFBP, 0x00000000)  returns 0x00 (0000ms, 0887ms total)
T397C 001:504 JLINK_SetBPEx(Addr = 0x1FFFF000, Type = 0xFFFFFFF2)  returns 0x0000000F (0000ms, 0887ms total)
T397C 001:504 JLINK_Go() -- CPU_WriteMem(4 bytes @ 0xE0002000) -- CPU_ReadMem(4 bytes @ 0xE0001000) -- CPU_WriteMem(4 bytes @ 0xE0001000) (0002ms, 0889ms total)
T397C 001:506 JLINK_IsHalted()  returns FALSE (0000ms, 0889ms total)
T397C 001:508 JLINK_IsHalted()  returns FALSE (0001ms, 0890ms total)
T397C 001:511 JLINK_IsHalted()  returns FALSE (0000ms, 0889ms total)
T397C 001:513 JLINK_IsHalted()  returns TRUE (0001ms, 0890ms total)
T397C 001:514 JLINK_ReadReg(R15 (PC))  returns 0x1FFFF000 (0001ms, 0890ms total)
T397C 001:515 JLINK_ClrBPEx(BPHandle = 0x0000000F)  returns 0x00 (0000ms, 0890ms total)
T397C 001:515 JLINK_ReadReg(R0)  returns 0x00000000 (0000ms, 0890ms total)
T397C 001:515 JLINK_WriteMem(0x1FFFF648, 0x0100 Bytes, ...) - Data: 70 BD 38 B5 7C 48 00 68 08 F0 5E F8 04 46 21 46 ... -- CPU_WriteMem(256 bytes @ 0x1FFFF648)  returns 0x100 (0002ms, 0892ms total)
T397C 001:517 JLINK_WriteReg(R0, 0x00000B00)  returns 0x00 (0000ms, 0892ms total)
T397C 001:517 JLINK_WriteReg(R1, 0x00000100)  returns 0x00 (0000ms, 0892ms total)
T397C 001:517 JLINK_WriteReg(R2, 0x1FFFF648)  returns 0x00 (0000ms, 0892ms total)
T397C 001:517 JLINK_WriteReg(R3, 0x00000000)  returns 0x00 (0000ms, 0892ms total)
